Circuit: * D:\IEP-E\Exercise 12\12.asc

Direct Newton iteration for .op point succeeded.
Semiconductor Device Operating Points:
                        --- Diodes ---
Name:    d:m1:1
Model:  m1:diode1
Id:     -2.63e-12
Vd:     -2.02e+00
Req:     1.00e+12
CAP:     0.00e+00

                        --- MOSFET Transistors ---
Name:        m:m1:1
Model:       m1:mod1
Id:          1.49e-02
Vgs:         2.20e+00
Vds:         2.02e+00
Vbs:         0.00e+00
Vth:         1.74e+00
Vdsat:       4.36e-01
Gm:          6.84e-02
Gds:         0.00e+00
Gmb:         0.00e+00
Cbd:         1.47e-11
Cbs:         0.00e+00
Cgsov:       0.00e+00
Cgdov:       0.00e+00
Cgbov:       0.00e+00
Cgs:         0.00e+00
Cgd:         0.00e+00
Cgb:         0.00e+00



Date: Mon Jan  1 20:46:42 2024
Total elapsed time: 0.052 seconds.

tnom = 27
temp = 27
method = trap
totiter = 8
traniter = 0
tranpoints = 0
accept = 0
rejected = 0
matrix size = 9
fillins = 0
solver = Normal
Avg thread counts: 8.0/0.0/8.0/8.0
Matrix Compiler1: 942 bytes object code size
Matrix Compiler2: 851 bytes object code size
